Sample in Buffer,Sample in Window,TRIGGER,genblk1[0].Aquila_SoC/RISCV_CORE/fet_pc2dec[31:0],genblk1[0].Aquila_SoC/RISCV_CORE/fet_instr2dec[31:0],genblk1[1].Aquila_SoC/RISCV_CORE/fet_instr2dec[31:0],genblk1[1].Aquila_SoC/RISCV_CORE/fet_pc2dec[31:0]
Radix - UNSIGNED,UNSIGNED,UNSIGNED,HEX,HEX,HEX,HEX
0,0,0,000008e8,fec79ae3,0087f793,0000067b
1,1,0,000008e8,fec79ae3,fe079ce3,0000067f
2,2,0,000008dc,0006a783,fe079ce3,0000067f
3,3,0,000008dc,0006a783,00072783,00000677
4,4,0,000008e0,fee79ee3,00072783,00000677
5,5,0,000008e0,fee79ee3,0087f793,0000067b
6,6,0,000008e0,fee79ee3,0087f793,0000067b
7,7,0,000008e0,fee79ee3,0087f793,0000067b
8,8,0,000008e4,0005a783,0087f793,0000067b
9,9,0,000008e4,0005a783,fe079ce3,0000067f
10,10,0,000008e8,fec79ae3,fe079ce3,0000067f
11,11,0,000008e8,fec79ae3,00072783,00000677
12,12,0,000008e8,fec79ae3,00072783,00000677
13,13,0,000008e8,fec79ae3,0087f793,0000067b
14,14,0,000008dc,0006a783,0087f793,0000067b
15,15,0,000008dc,0006a783,0087f793,0000067b
16,16,0,000008e0,fee79ee3,0087f793,0000067b
17,17,0,000008e0,fee79ee3,fe079ce3,0000067f
18,18,0,000008e0,fee79ee3,fe079ce3,0000067f
19,19,0,000008e0,fee79ee3,00072783,00000677
20,20,0,000008e4,0005a783,00072783,00000677
21,21,0,000008e4,0005a783,0087f793,0000067b
22,22,0,000008e8,fec79ae3,0087f793,0000067b
23,23,0,000008e8,fec79ae3,0087f793,0000067b
24,24,0,000008e8,fec79ae3,0087f793,0000067b
25,25,0,000008e8,fec79ae3,fe079ce3,0000067f
26,26,0,000008dc,0006a783,fe079ce3,0000067f
27,27,0,000008dc,0006a783,00072783,00000677
28,28,0,000008e0,fee79ee3,00072783,00000677
29,29,0,000008e0,fee79ee3,0087f793,0000067b
30,30,0,000008e0,fee79ee3,0087f793,0000067b
31,31,0,000008e0,fee79ee3,0087f793,0000067b
32,32,0,000008e4,0005a783,0087f793,0000067b
33,33,0,000008e4,0005a783,fe079ce3,0000067f
34,34,0,000008e8,fec79ae3,fe079ce3,0000067f
35,35,0,000008e8,fec79ae3,00072783,00000677
36,36,0,000008e8,fec79ae3,00072783,00000677
37,37,0,000008e8,fec79ae3,0087f793,0000067b
38,38,0,000008dc,0006a783,0087f793,0000067b
39,39,0,000008dc,0006a783,0087f793,0000067b
40,40,0,000008e0,fee79ee3,0087f793,0000067b
41,41,0,000008e0,fee79ee3,fe079ce3,0000067f
42,42,0,000008e0,fee79ee3,fe079ce3,0000067f
43,43,0,000008e0,fee79ee3,00072783,00000677
44,44,0,000008e4,0005a783,00072783,00000677
45,45,0,000008e4,0005a783,0087f793,0000067b
46,46,0,000008e8,fec79ae3,0087f793,0000067b
47,47,0,000008e8,fec79ae3,0087f793,0000067b
48,48,0,000008e8,fec79ae3,0087f793,0000067b
49,49,0,000008e8,fec79ae3,fe079ce3,0000067f
50,50,0,000008dc,0006a783,fe079ce3,0000067f
51,51,0,000008dc,0006a783,00072783,00000677
52,52,0,000008e0,fee79ee3,00072783,00000677
53,53,0,000008e0,fee79ee3,0087f793,0000067b
54,54,0,000008e0,fee79ee3,0087f793,0000067b
55,55,0,000008e0,fee79ee3,0087f793,0000067b
56,56,0,000008e4,0005a783,0087f793,0000067b
57,57,0,000008e4,0005a783,fe079ce3,0000067f
58,58,0,000008e8,fec79ae3,fe079ce3,0000067f
59,59,0,000008e8,fec79ae3,00072783,00000677
60,60,0,000008e8,fec79ae3,00072783,00000677
61,61,0,000008e8,fec79ae3,0087f793,0000067b
62,62,0,000008dc,0006a783,0087f793,0000067b
63,63,0,000008dc,0006a783,0087f793,0000067b
64,64,0,000008e0,fee79ee3,0087f793,0000067b
65,65,0,000008e0,fee79ee3,fe079ce3,0000067f
66,66,0,000008e0,fee79ee3,fe079ce3,0000067f
67,67,0,000008e0,fee79ee3,00072783,00000677
68,68,0,000008e4,0005a783,00072783,00000677
69,69,0,000008e4,0005a783,0087f793,0000067b
70,70,0,000008e8,fec79ae3,0087f793,0000067b
71,71,0,000008e8,fec79ae3,0087f793,0000067b
72,72,0,000008e8,fec79ae3,0087f793,0000067b
73,73,0,000008e8,fec79ae3,fe079ce3,0000067f
74,74,0,000008dc,0006a783,fe079ce3,0000067f
75,75,0,000008dc,0006a783,00072783,00000677
76,76,0,000008e0,fee79ee3,00072783,00000677
77,77,0,000008e0,fee79ee3,0087f793,0000067b
78,78,0,000008e0,fee79ee3,0087f793,0000067b
79,79,0,000008e0,fee79ee3,0087f793,0000067b
80,80,0,000008e4,0005a783,0087f793,0000067b
81,81,0,000008e4,0005a783,fe079ce3,0000067f
82,82,0,000008e8,fec79ae3,fe079ce3,0000067f
83,83,0,000008e8,fec79ae3,00072783,00000677
84,84,0,000008e8,fec79ae3,00072783,00000677
85,85,0,000008e8,fec79ae3,0087f793,0000067b
86,86,0,000008dc,0006a783,0087f793,0000067b
87,87,0,000008dc,0006a783,0087f793,0000067b
88,88,0,000008e0,fee79ee3,0087f793,0000067b
89,89,0,000008e0,fee79ee3,fe079ce3,0000067f
90,90,0,000008e0,fee79ee3,fe079ce3,0000067f
91,91,0,000008e0,fee79ee3,00072783,00000677
92,92,0,000008e4,0005a783,00072783,00000677
93,93,0,000008e4,0005a783,0087f793,0000067b
94,94,0,000008e8,fec79ae3,0087f793,0000067b
95,95,0,000008e8,fec79ae3,0087f793,0000067b
96,96,0,000008e8,fec79ae3,0087f793,0000067b
97,97,0,000008e8,fec79ae3,fe079ce3,0000067f
98,98,0,000008dc,0006a783,fe079ce3,0000067f
99,99,0,000008dc,0006a783,00072783,00000677
100,100,1,000008e0,fee79ee3,00072783,00000677
101,101,0,000008e0,fee79ee3,0087f793,0000067b
102,102,0,000008e0,fee79ee3,0087f793,0000067b
103,103,0,000008e0,fee79ee3,0087f793,0000067b
104,104,0,000008e4,0005a783,0087f793,0000067b
105,105,0,000008e4,0005a783,fe079ce3,0000067f
106,106,0,000008e8,fec79ae3,fe079ce3,0000067f
107,107,0,000008e8,fec79ae3,00072783,00000677
108,108,0,000008e8,fec79ae3,00072783,00000677
109,109,0,000008e8,fec79ae3,0087f793,0000067b
110,110,0,000008dc,0006a783,0087f793,0000067b
111,111,0,000008dc,0006a783,0087f793,0000067b
112,112,0,000008e0,fee79ee3,0087f793,0000067b
113,113,0,000008e0,fee79ee3,fe079ce3,0000067f
114,114,0,000008e0,fee79ee3,fe079ce3,0000067f
115,115,0,000008e0,fee79ee3,00072783,00000677
116,116,0,000008e4,0005a783,00072783,00000677
117,117,0,000008e4,0005a783,0087f793,0000067b
118,118,0,000008e8,fec79ae3,0087f793,0000067b
119,119,0,000008e8,fec79ae3,0087f793,0000067b
120,120,0,000008e8,fec79ae3,0087f793,0000067b
121,121,0,000008e8,fec79ae3,fe079ce3,0000067f
122,122,0,000008dc,0006a783,fe079ce3,0000067f
123,123,0,000008dc,0006a783,00072783,00000677
124,124,0,000008e0,fee79ee3,00072783,00000677
125,125,0,000008e0,fee79ee3,0087f793,0000067b
126,126,0,000008e0,fee79ee3,0087f793,0000067b
127,127,0,000008e0,fee79ee3,0087f793,0000067b
128,128,0,000008e4,0005a783,0087f793,0000067b
129,129,0,000008e4,0005a783,fe079ce3,0000067f
130,130,0,000008e8,fec79ae3,fe079ce3,0000067f
131,131,0,000008e8,fec79ae3,00072783,00000677
132,132,0,000008e8,fec79ae3,00072783,00000677
133,133,0,000008e8,fec79ae3,0087f793,0000067b
134,134,0,000008dc,0006a783,0087f793,0000067b
135,135,0,000008dc,0006a783,0087f793,0000067b
136,136,0,000008e0,fee79ee3,0087f793,0000067b
137,137,0,000008e0,fee79ee3,fe079ce3,0000067f
138,138,0,000008e0,fee79ee3,fe079ce3,0000067f
139,139,0,000008e0,fee79ee3,00072783,00000677
140,140,0,000008e4,0005a783,00072783,00000677
141,141,0,000008e4,0005a783,0087f793,0000067b
142,142,0,000008e8,fec79ae3,0087f793,0000067b
143,143,0,000008e8,fec79ae3,0087f793,0000067b
144,144,0,000008e8,fec79ae3,0087f793,0000067b
145,145,0,000008e8,fec79ae3,fe079ce3,0000067f
146,146,0,000008dc,0006a783,fe079ce3,0000067f
147,147,0,000008dc,0006a783,00072783,00000677
148,148,0,000008e0,fee79ee3,00072783,00000677
149,149,0,000008e0,fee79ee3,0087f793,0000067b
150,150,0,000008e0,fee79ee3,0087f793,0000067b
151,151,0,000008e0,fee79ee3,0087f793,0000067b
152,152,0,000008e4,0005a783,0087f793,0000067b
153,153,0,000008e4,0005a783,fe079ce3,0000067f
154,154,0,000008e8,fec79ae3,fe079ce3,0000067f
155,155,0,000008e8,fec79ae3,00072783,00000677
156,156,0,000008e8,fec79ae3,00072783,00000677
157,157,0,000008e8,fec79ae3,0087f793,0000067b
158,158,0,000008dc,0006a783,0087f793,0000067b
159,159,0,000008dc,0006a783,0087f793,0000067b
160,160,0,000008e0,fee79ee3,0087f793,0000067b
161,161,0,000008e0,fee79ee3,fe079ce3,0000067f
162,162,0,000008e0,fee79ee3,fe079ce3,0000067f
163,163,0,000008e0,fee79ee3,00072783,00000677
164,164,0,000008e4,0005a783,00072783,00000677
165,165,0,000008e4,0005a783,0087f793,0000067b
166,166,0,000008e8,fec79ae3,0087f793,0000067b
167,167,0,000008e8,fec79ae3,0087f793,0000067b
168,168,0,000008e8,fec79ae3,0087f793,0000067b
169,169,0,000008e8,fec79ae3,fe079ce3,0000067f
170,170,0,000008dc,0006a783,fe079ce3,0000067f
171,171,0,000008dc,0006a783,00072783,00000677
172,172,0,000008e0,fee79ee3,00072783,00000677
173,173,0,000008e0,fee79ee3,0087f793,0000067b
174,174,0,000008e0,fee79ee3,0087f793,0000067b
175,175,0,000008e0,fee79ee3,0087f793,0000067b
176,176,0,000008e4,0005a783,0087f793,0000067b
177,177,0,000008e4,0005a783,fe079ce3,0000067f
178,178,0,000008e8,fec79ae3,fe079ce3,0000067f
179,179,0,000008e8,fec79ae3,00072783,00000677
180,180,0,000008e8,fec79ae3,00072783,00000677
181,181,0,000008e8,fec79ae3,0087f793,0000067b
182,182,0,000008dc,0006a783,0087f793,0000067b
183,183,0,000008dc,0006a783,0087f793,0000067b
184,184,0,000008e0,fee79ee3,0087f793,0000067b
185,185,0,000008e0,fee79ee3,fe079ce3,0000067f
186,186,0,000008e0,fee79ee3,fe079ce3,0000067f
187,187,0,000008e0,fee79ee3,00072783,00000677
188,188,0,000008e4,0005a783,00072783,00000677
189,189,0,000008e4,0005a783,0087f793,0000067b
190,190,0,000008e8,fec79ae3,0087f793,0000067b
191,191,0,000008e8,fec79ae3,0087f793,0000067b
192,192,0,000008e8,fec79ae3,0087f793,0000067b
193,193,0,000008e8,fec79ae3,fe079ce3,0000067f
194,194,0,000008dc,0006a783,fe079ce3,0000067f
195,195,0,000008dc,0006a783,00072783,00000677
196,196,0,000008e0,fee79ee3,00072783,00000677
197,197,0,000008e0,fee79ee3,0087f793,0000067b
198,198,0,000008e0,fee79ee3,0087f793,0000067b
199,199,0,000008e0,fee79ee3,0087f793,0000067b
200,200,0,000008e4,0005a783,0087f793,0000067b
201,201,0,000008e4,0005a783,fe079ce3,0000067f
202,202,0,000008e8,fec79ae3,fe079ce3,0000067f
203,203,0,000008e8,fec79ae3,00072783,00000677
204,204,0,000008e8,fec79ae3,00072783,00000677
205,205,0,000008e8,fec79ae3,0087f793,0000067b
206,206,0,000008dc,0006a783,0087f793,0000067b
207,207,0,000008dc,0006a783,0087f793,0000067b
208,208,0,000008e0,fee79ee3,0087f793,0000067b
209,209,0,000008e0,fee79ee3,fe079ce3,0000067f
210,210,0,000008e0,fee79ee3,fe079ce3,0000067f
211,211,0,000008e0,fee79ee3,00072783,00000677
212,212,0,000008e4,0005a783,00072783,00000677
213,213,0,000008e4,0005a783,0087f793,0000067b
214,214,0,000008e8,fec79ae3,0087f793,0000067b
215,215,0,000008e8,fec79ae3,0087f793,0000067b
216,216,0,000008e8,fec79ae3,0087f793,0000067b
217,217,0,000008e8,fec79ae3,fe079ce3,0000067f
218,218,0,000008dc,0006a783,fe079ce3,0000067f
219,219,0,000008dc,0006a783,00072783,00000677
220,220,0,000008e0,fee79ee3,00072783,00000677
221,221,0,000008e0,fee79ee3,0087f793,0000067b
222,222,0,000008e0,fee79ee3,0087f793,0000067b
223,223,0,000008e0,fee79ee3,0087f793,0000067b
224,224,0,000008e4,0005a783,0087f793,0000067b
225,225,0,000008e4,0005a783,fe079ce3,0000067f
226,226,0,000008e8,fec79ae3,fe079ce3,0000067f
227,227,0,000008e8,fec79ae3,00072783,00000677
228,228,0,000008e8,fec79ae3,00072783,00000677
229,229,0,000008e8,fec79ae3,0087f793,0000067b
230,230,0,000008dc,0006a783,0087f793,0000067b
231,231,0,000008dc,0006a783,0087f793,0000067b
232,232,0,000008e0,fee79ee3,0087f793,0000067b
233,233,0,000008e0,fee79ee3,fe079ce3,0000067f
234,234,0,000008e0,fee79ee3,fe079ce3,0000067f
235,235,0,000008e0,fee79ee3,00072783,00000677
236,236,0,000008e4,0005a783,00072783,00000677
237,237,0,000008e4,0005a783,0087f793,0000067b
238,238,0,000008e8,fec79ae3,0087f793,0000067b
239,239,0,000008e8,fec79ae3,0087f793,0000067b
240,240,0,000008e8,fec79ae3,0087f793,0000067b
241,241,0,000008e8,fec79ae3,fe079ce3,0000067f
242,242,0,000008dc,0006a783,fe079ce3,0000067f
243,243,0,000008dc,0006a783,00072783,00000677
244,244,0,000008e0,fee79ee3,00072783,00000677
245,245,0,000008e0,fee79ee3,0087f793,0000067b
246,246,0,000008e0,fee79ee3,0087f793,0000067b
247,247,0,000008e0,fee79ee3,0087f793,0000067b
248,248,0,000008e4,0005a783,0087f793,0000067b
249,249,0,000008e4,0005a783,fe079ce3,0000067f
250,250,0,000008e8,fec79ae3,fe079ce3,0000067f
251,251,0,000008e8,fec79ae3,00072783,00000677
252,252,0,000008e8,fec79ae3,00072783,00000677
253,253,0,000008e8,fec79ae3,0087f793,0000067b
254,254,0,000008dc,0006a783,0087f793,0000067b
255,255,0,000008dc,0006a783,0087f793,0000067b
256,256,0,000008e0,fee79ee3,0087f793,0000067b
257,257,0,000008e0,fee79ee3,fe079ce3,0000067f
258,258,0,000008e0,fee79ee3,fe079ce3,0000067f
259,259,0,000008e0,fee79ee3,00072783,00000677
260,260,0,000008e4,0005a783,00072783,00000677
261,261,0,000008e4,0005a783,0087f793,0000067b
262,262,0,000008e8,fec79ae3,0087f793,0000067b
263,263,0,000008e8,fec79ae3,0087f793,0000067b
264,264,0,000008e8,fec79ae3,0087f793,0000067b
265,265,0,000008e8,fec79ae3,fe079ce3,0000067f
266,266,0,000008dc,0006a783,fe079ce3,0000067f
267,267,0,000008dc,0006a783,00072783,00000677
268,268,0,000008e0,fee79ee3,00072783,00000677
269,269,0,000008e0,fee79ee3,0087f793,0000067b
270,270,0,000008e0,fee79ee3,0087f793,0000067b
271,271,0,000008e0,fee79ee3,0087f793,0000067b
272,272,0,000008e4,0005a783,0087f793,0000067b
273,273,0,000008e4,0005a783,fe079ce3,0000067f
274,274,0,000008e8,fec79ae3,fe079ce3,0000067f
275,275,0,000008e8,fec79ae3,00072783,00000677
276,276,0,000008e8,fec79ae3,00072783,00000677
277,277,0,000008e8,fec79ae3,0087f793,0000067b
278,278,0,000008dc,0006a783,0087f793,0000067b
279,279,0,000008dc,0006a783,0087f793,0000067b
280,280,0,000008e0,fee79ee3,0087f793,0000067b
281,281,0,000008e0,fee79ee3,fe079ce3,0000067f
282,282,0,000008e0,fee79ee3,fe079ce3,0000067f
283,283,0,000008e0,fee79ee3,00072783,00000677
284,284,0,000008e4,0005a783,00072783,00000677
285,285,0,000008e4,0005a783,0087f793,0000067b
286,286,0,000008e8,fec79ae3,0087f793,0000067b
287,287,0,000008e8,fec79ae3,0087f793,0000067b
288,288,0,000008e8,fec79ae3,0087f793,0000067b
289,289,0,000008e8,fec79ae3,fe079ce3,0000067f
290,290,0,000008dc,0006a783,fe079ce3,0000067f
291,291,0,000008dc,0006a783,00072783,00000677
292,292,0,000008e0,fee79ee3,00072783,00000677
293,293,0,000008e0,fee79ee3,0087f793,0000067b
294,294,0,000008e0,fee79ee3,0087f793,0000067b
295,295,0,000008e0,fee79ee3,0087f793,0000067b
296,296,0,000008e4,0005a783,0087f793,0000067b
297,297,0,000008e4,0005a783,fe079ce3,0000067f
298,298,0,000008e8,fec79ae3,fe079ce3,0000067f
299,299,0,000008e8,fec79ae3,00072783,00000677
300,300,0,000008e8,fec79ae3,00072783,00000677
301,301,0,000008e8,fec79ae3,0087f793,0000067b
302,302,0,000008dc,0006a783,0087f793,0000067b
303,303,0,000008dc,0006a783,0087f793,0000067b
304,304,0,000008e0,fee79ee3,0087f793,0000067b
305,305,0,000008e0,fee79ee3,fe079ce3,0000067f
306,306,0,000008e0,fee79ee3,fe079ce3,0000067f
307,307,0,000008e0,fee79ee3,00072783,00000677
308,308,0,000008e4,0005a783,00072783,00000677
309,309,0,000008e4,0005a783,0087f793,0000067b
310,310,0,000008e8,fec79ae3,0087f793,0000067b
311,311,0,000008e8,fec79ae3,0087f793,0000067b
312,312,0,000008e8,fec79ae3,0087f793,0000067b
313,313,0,000008e8,fec79ae3,fe079ce3,0000067f
314,314,0,000008dc,0006a783,fe079ce3,0000067f
315,315,0,000008dc,0006a783,00072783,00000677
316,316,0,000008e0,fee79ee3,00072783,00000677
317,317,0,000008e0,fee79ee3,0087f793,0000067b
318,318,0,000008e0,fee79ee3,0087f793,0000067b
319,319,0,000008e0,fee79ee3,0087f793,0000067b
320,320,0,000008e4,0005a783,0087f793,0000067b
321,321,0,000008e4,0005a783,fe079ce3,0000067f
322,322,0,000008e8,fec79ae3,fe079ce3,0000067f
323,323,0,000008e8,fec79ae3,00072783,00000677
324,324,0,000008e8,fec79ae3,00072783,00000677
325,325,0,000008e8,fec79ae3,0087f793,0000067b
326,326,0,000008dc,0006a783,0087f793,0000067b
327,327,0,000008dc,0006a783,0087f793,0000067b
328,328,0,000008e0,fee79ee3,0087f793,0000067b
329,329,0,000008e0,fee79ee3,fe079ce3,0000067f
330,330,0,000008e0,fee79ee3,fe079ce3,0000067f
331,331,0,000008e0,fee79ee3,00072783,00000677
332,332,0,000008e4,0005a783,00072783,00000677
333,333,0,000008e4,0005a783,0087f793,0000067b
334,334,0,000008e8,fec79ae3,0087f793,0000067b
335,335,0,000008e8,fec79ae3,0087f793,0000067b
336,336,0,000008e8,fec79ae3,0087f793,0000067b
337,337,0,000008e8,fec79ae3,fe079ce3,0000067f
338,338,0,000008dc,0006a783,fe079ce3,0000067f
339,339,0,000008dc,0006a783,00072783,00000677
340,340,0,000008e0,fee79ee3,00072783,00000677
341,341,0,000008e0,fee79ee3,0087f793,0000067b
342,342,0,000008e0,fee79ee3,0087f793,0000067b
343,343,0,000008e0,fee79ee3,0087f793,0000067b
344,344,0,000008e4,0005a783,0087f793,0000067b
345,345,0,000008e4,0005a783,fe079ce3,0000067f
346,346,0,000008e8,fec79ae3,fe079ce3,0000067f
347,347,0,000008e8,fec79ae3,00072783,00000677
348,348,0,000008e8,fec79ae3,00072783,00000677
349,349,0,000008e8,fec79ae3,0087f793,0000067b
350,350,0,000008dc,0006a783,0087f793,0000067b
351,351,0,000008dc,0006a783,0087f793,0000067b
352,352,0,000008e0,fee79ee3,0087f793,0000067b
353,353,0,000008e0,fee79ee3,fe079ce3,0000067f
354,354,0,000008e0,fee79ee3,fe079ce3,0000067f
355,355,0,000008e0,fee79ee3,00072783,00000677
356,356,0,000008e4,0005a783,00072783,00000677
357,357,0,000008e4,0005a783,0087f793,0000067b
358,358,0,000008e8,fec79ae3,0087f793,0000067b
359,359,0,000008e8,fec79ae3,0087f793,0000067b
360,360,0,000008e8,fec79ae3,0087f793,0000067b
361,361,0,000008e8,fec79ae3,fe079ce3,0000067f
362,362,0,000008dc,0006a783,fe079ce3,0000067f
363,363,0,000008dc,0006a783,00072783,00000677
364,364,0,000008e0,fee79ee3,00072783,00000677
365,365,0,000008e0,fee79ee3,0087f793,0000067b
366,366,0,000008e0,fee79ee3,0087f793,0000067b
367,367,0,000008e0,fee79ee3,0087f793,0000067b
368,368,0,000008e4,0005a783,0087f793,0000067b
369,369,0,000008e4,0005a783,fe079ce3,0000067f
370,370,0,000008e8,fec79ae3,fe079ce3,0000067f
371,371,0,000008e8,fec79ae3,00072783,00000677
372,372,0,000008e8,fec79ae3,00072783,00000677
373,373,0,000008e8,fec79ae3,0087f793,0000067b
374,374,0,000008dc,0006a783,0087f793,0000067b
375,375,0,000008dc,0006a783,0087f793,0000067b
376,376,0,000008e0,fee79ee3,0087f793,0000067b
377,377,0,000008e0,fee79ee3,fe079ce3,0000067f
378,378,0,000008e0,fee79ee3,fe079ce3,0000067f
379,379,0,000008e0,fee79ee3,00072783,00000677
380,380,0,000008e4,0005a783,00072783,00000677
381,381,0,000008e4,0005a783,0087f793,0000067b
382,382,0,000008e8,fec79ae3,0087f793,0000067b
383,383,0,000008e8,fec79ae3,0087f793,0000067b
384,384,0,000008e8,fec79ae3,0087f793,0000067b
385,385,0,000008e8,fec79ae3,fe079ce3,0000067f
386,386,0,000008dc,0006a783,fe079ce3,0000067f
387,387,0,000008dc,0006a783,00072783,00000677
388,388,0,000008e0,fee79ee3,00072783,00000677
389,389,0,000008e0,fee79ee3,0087f793,0000067b
390,390,0,000008e0,fee79ee3,0087f793,0000067b
391,391,0,000008e0,fee79ee3,0087f793,0000067b
392,392,0,000008e4,0005a783,0087f793,0000067b
393,393,0,000008e4,0005a783,fe079ce3,0000067f
394,394,0,000008e8,fec79ae3,fe079ce3,0000067f
395,395,0,000008e8,fec79ae3,00072783,00000677
396,396,0,000008e8,fec79ae3,00072783,00000677
397,397,0,000008e8,fec79ae3,0087f793,0000067b
398,398,0,000008dc,0006a783,0087f793,0000067b
399,399,0,000008dc,0006a783,0087f793,0000067b
400,400,0,000008e0,fee79ee3,0087f793,0000067b
401,401,0,000008e0,fee79ee3,fe079ce3,0000067f
402,402,0,000008e0,fee79ee3,fe079ce3,0000067f
403,403,0,000008e0,fee79ee3,00072783,00000677
404,404,0,000008e4,0005a783,00072783,00000677
405,405,0,000008e4,0005a783,0087f793,0000067b
406,406,0,000008e8,fec79ae3,0087f793,0000067b
407,407,0,000008e8,fec79ae3,0087f793,0000067b
408,408,0,000008e8,fec79ae3,0087f793,0000067b
409,409,0,000008e8,fec79ae3,fe079ce3,0000067f
410,410,0,000008dc,0006a783,fe079ce3,0000067f
411,411,0,000008dc,0006a783,00072783,00000677
412,412,0,000008e0,fee79ee3,00072783,00000677
413,413,0,000008e0,fee79ee3,0087f793,0000067b
414,414,0,000008e0,fee79ee3,0087f793,0000067b
415,415,0,000008e0,fee79ee3,0087f793,0000067b
416,416,0,000008e4,0005a783,0087f793,0000067b
417,417,0,000008e4,0005a783,fe079ce3,0000067f
418,418,0,000008e8,fec79ae3,fe079ce3,0000067f
419,419,0,000008e8,fec79ae3,00072783,00000677
420,420,0,000008e8,fec79ae3,00072783,00000677
421,421,0,000008e8,fec79ae3,0087f793,0000067b
422,422,0,000008dc,0006a783,0087f793,0000067b
423,423,0,000008dc,0006a783,0087f793,0000067b
424,424,0,000008e0,fee79ee3,0087f793,0000067b
425,425,0,000008e0,fee79ee3,fe079ce3,0000067f
426,426,0,000008e0,fee79ee3,fe079ce3,0000067f
427,427,0,000008e0,fee79ee3,00072783,00000677
428,428,0,000008e4,0005a783,00072783,00000677
429,429,0,000008e4,0005a783,0087f793,0000067b
430,430,0,000008e8,fec79ae3,0087f793,0000067b
431,431,0,000008e8,fec79ae3,0087f793,0000067b
432,432,0,000008e8,fec79ae3,0087f793,0000067b
